<Qucs Dataset 0.0.20>
<indep frequency 19>
  +1.00000000000000000000e+06
  +1.50000000000000000000e+06
  +2.00000000000000000000e+06
  +2.50000000000000000000e+06
  +3.00000000000000000000e+06
  +3.50000000000000000000e+06
  +4.00000000000000000000e+06
  +4.50000000000000000000e+06
  +5.00000000000000000000e+06
  +5.50000000000000000000e+06
  +6.00000000000000000000e+06
  +6.50000000000000000000e+06
  +7.00000000000000000000e+06
  +7.50000000000000000000e+06
  +8.00000000000000000000e+06
  +8.50000000000000000000e+06
  +9.00000000000000000000e+06
  +9.50000000000000000000e+06
  +1.00000000000000000000e+07
</indep>
<dep dB_S13 frequency>
  -1.80785547862719973011e+01
  -1.80785547862719973011e+01
  -1.80785547862719973011e+01
  -1.80785547862719973011e+01
  -1.80785547862719973011e+01
  -1.80785547862719973011e+01
  -1.80785547862719973011e+01
  -1.80785547862719973011e+01
  -1.80785547862719973011e+01
  -1.80785547862719973011e+01
  -1.80785547862719973011e+01
  -1.80785547862719973011e+01
  -1.80785547862719973011e+01
  -1.80785547862719973011e+01
  -1.80785547862719973011e+01
  -1.80785547862719973011e+01
  -1.80785547862719973011e+01
  -1.80785547862719973011e+01
  -1.80785547862719973011e+01
</dep>
<dep dB_S31 frequency>
  -1.80785547862719973011e+01
  -1.80785547862719973011e+01
  -1.80785547862719973011e+01
  -1.80785547862719973011e+01
  -1.80785547862719973011e+01
  -1.80785547862719973011e+01
  -1.80785547862719973011e+01
  -1.80785547862719973011e+01
  -1.80785547862719973011e+01
  -1.80785547862719973011e+01
  -1.80785547862719973011e+01
  -1.80785547862719973011e+01
  -1.80785547862719973011e+01
  -1.80785547862719973011e+01
  -1.80785547862719973011e+01
  -1.80785547862719973011e+01
  -1.80785547862719973011e+01
  -1.80785547862719973011e+01
  -1.80785547862719973011e+01
</dep>
<dep dB_S12 frequency>
  -1.64987530034285900804e+00
  -1.64987530034285900804e+00
  -1.64987530034285900804e+00
  -1.64987530034285900804e+00
  -1.64987530034285900804e+00
  -1.64987530034285900804e+00
  -1.64987530034285900804e+00
  -1.64987530034285900804e+00
  -1.64987530034285900804e+00
  -1.64987530034285900804e+00
  -1.64987530034285900804e+00
  -1.64987530034285900804e+00
  -1.64987530034285900804e+00
  -1.64987530034285900804e+00
  -1.64987530034285900804e+00
  -1.64987530034285900804e+00
  -1.64987530034285900804e+00
  -1.64987530034285900804e+00
  -1.64987530034285900804e+00
</dep>
<dep dB_S21 frequency>
  -1.64987530034285900804e+00
  -1.64987530034285900804e+00
  -1.64987530034285900804e+00
  -1.64987530034285900804e+00
  -1.64987530034285900804e+00
  -1.64987530034285900804e+00
  -1.64987530034285900804e+00
  -1.64987530034285900804e+00
  -1.64987530034285900804e+00
  -1.64987530034285900804e+00
  -1.64987530034285900804e+00
  -1.64987530034285900804e+00
  -1.64987530034285900804e+00
  -1.64987530034285900804e+00
  -1.64987530034285900804e+00
  -1.64987530034285900804e+00
  -1.64987530034285900804e+00
  -1.64987530034285900804e+00
  -1.64987530034285900804e+00
</dep>
<dep S[3,3] frequency>
  +7.58260893573280858604e-01
  +7.58260893573280858604e-01
  +7.58260893573280858604e-01
  +7.58260893573280858604e-01
  +7.58260893573280858604e-01
  +7.58260893573280858604e-01
  +7.58260893573280858604e-01
  +7.58260893573280858604e-01
  +7.58260893573280858604e-01
  +7.58260893573280858604e-01
  +7.58260893573280858604e-01
  +7.58260893573280858604e-01
  +7.58260893573280858604e-01
  +7.58260893573280858604e-01
  +7.58260893573280858604e-01
  +7.58260893573280858604e-01
  +7.58260893573280858604e-01
  +7.58260893573280858604e-01
  +7.58260893573280858604e-01
</dep>
<dep S[3,2] frequency>
  +1.16979998513018990103e-01
  +1.16979998513018990103e-01
  +1.16979998513018990103e-01
  +1.16979998513018990103e-01
  +1.16979998513018990103e-01
  +1.16979998513018990103e-01
  +1.16979998513018990103e-01
  +1.16979998513018990103e-01
  +1.16979998513018990103e-01
  +1.16979998513018990103e-01
  +1.16979998513018990103e-01
  +1.16979998513018990103e-01
  +1.16979998513018990103e-01
  +1.16979998513018990103e-01
  +1.16979998513018990103e-01
  +1.16979998513018990103e-01
  +1.16979998513018990103e-01
  +1.16979998513018990103e-01
  +1.16979998513018990103e-01
</dep>
<dep S[3,1] frequency>
  +1.24759107913700095782e-01
  +1.24759107913700095782e-01
  +1.24759107913700095782e-01
  +1.24759107913700095782e-01
  +1.24759107913700095782e-01
  +1.24759107913700095782e-01
  +1.24759107913700095782e-01
  +1.24759107913700095782e-01
  +1.24759107913700095782e-01
  +1.24759107913700095782e-01
  +1.24759107913700095782e-01
  +1.24759107913700095782e-01
  +1.24759107913700095782e-01
  +1.24759107913700095782e-01
  +1.24759107913700095782e-01
  +1.24759107913700095782e-01
  +1.24759107913700095782e-01
  +1.24759107913700095782e-01
  +1.24759107913700095782e-01
</dep>
<dep S[2,3] frequency>
  +1.16979998513018990103e-01
  +1.16979998513018990103e-01
  +1.16979998513018990103e-01
  +1.16979998513018990103e-01
  +1.16979998513018990103e-01
  +1.16979998513018990103e-01
  +1.16979998513018990103e-01
  +1.16979998513018990103e-01
  +1.16979998513018990103e-01
  +1.16979998513018990103e-01
  +1.16979998513018990103e-01
  +1.16979998513018990103e-01
  +1.16979998513018990103e-01
  +1.16979998513018990103e-01
  +1.16979998513018990103e-01
  +1.16979998513018990103e-01
  +1.16979998513018990103e-01
  +1.16979998513018990103e-01
  +1.16979998513018990103e-01
</dep>
<dep S[2,2] frequency>
  +5.60186200939564726831e-02
  +5.60186200939564726831e-02
  +5.60186200939564726831e-02
  +5.60186200939564726831e-02
  +5.60186200939564726831e-02
  +5.60186200939564726831e-02
  +5.60186200939564726831e-02
  +5.60186200939564726831e-02
  +5.60186200939564726831e-02
  +5.60186200939564726831e-02
  +5.60186200939564726831e-02
  +5.60186200939564726831e-02
  +5.60186200939564726831e-02
  +5.60186200939564726831e-02
  +5.60186200939564726831e-02
  +5.60186200939564726831e-02
  +5.60186200939564726831e-02
  +5.60186200939564726831e-02
  +5.60186200939564726831e-02
</dep>
<dep S[2,1] frequency>
  +8.27001381393024148636e-01
  +8.27001381393024148636e-01
  +8.27001381393024148636e-01
  +8.27001381393024148636e-01
  +8.27001381393024148636e-01
  +8.27001381393024148636e-01
  +8.27001381393024148636e-01
  +8.27001381393024148636e-01
  +8.27001381393024148636e-01
  +8.27001381393024148636e-01
  +8.27001381393024148636e-01
  +8.27001381393024148636e-01
  +8.27001381393024148636e-01
  +8.27001381393024148636e-01
  +8.27001381393024148636e-01
  +8.27001381393024148636e-01
  +8.27001381393024148636e-01
  +8.27001381393024148636e-01
  +8.27001381393024148636e-01
</dep>
<dep S[1,3] frequency>
  +1.24759107913700095782e-01
  +1.24759107913700095782e-01
  +1.24759107913700095782e-01
  +1.24759107913700095782e-01
  +1.24759107913700095782e-01
  +1.24759107913700095782e-01
  +1.24759107913700095782e-01
  +1.24759107913700095782e-01
  +1.24759107913700095782e-01
  +1.24759107913700095782e-01
  +1.24759107913700095782e-01
  +1.24759107913700095782e-01
  +1.24759107913700095782e-01
  +1.24759107913700095782e-01
  +1.24759107913700095782e-01
  +1.24759107913700095782e-01
  +1.24759107913700095782e-01
  +1.24759107913700095782e-01
  +1.24759107913700095782e-01
</dep>
<dep S[1,2] frequency>
  +8.27001381393024148636e-01
  +8.27001381393024148636e-01
  +8.27001381393024148636e-01
  +8.27001381393024148636e-01
  +8.27001381393024148636e-01
  +8.27001381393024148636e-01
  +8.27001381393024148636e-01
  +8.27001381393024148636e-01
  +8.27001381393024148636e-01
  +8.27001381393024148636e-01
  +8.27001381393024148636e-01
  +8.27001381393024148636e-01
  +8.27001381393024148636e-01
  +8.27001381393024148636e-01
  +8.27001381393024148636e-01
  +8.27001381393024148636e-01
  +8.27001381393024148636e-01
  +8.27001381393024148636e-01
  +8.27001381393024148636e-01
</dep>
<dep S[1,1] frequency>
  +4.82395106932753670037e-02
  +4.82395106932753670037e-02
  +4.82395106932753670037e-02
  +4.82395106932753670037e-02
  +4.82395106932753670037e-02
  +4.82395106932753670037e-02
  +4.82395106932753670037e-02
  +4.82395106932753670037e-02
  +4.82395106932753670037e-02
  +4.82395106932753670037e-02
  +4.82395106932753670037e-02
  +4.82395106932753670037e-02
  +4.82395106932753670037e-02
  +4.82395106932753670037e-02
  +4.82395106932753670037e-02
  +4.82395106932753670037e-02
  +4.82395106932753670037e-02
  +4.82395106932753670037e-02
  +4.82395106932753670037e-02
</dep>
